
T6534 000:002 SEGGER J-Link V6.16c Log File (0000ms, 0002ms total)
T6534 000:002 DLL Compiled: Jun 16 2017 18:14:49 (0000ms, 0002ms total)
T6534 000:002 Logging started @ 2018-03-07 12:49 (0000ms, 0002ms total)
T6534 000:002 JLINK_SetWarnOutHandler(...) (0000ms, 0002ms total)
T6534 000:002 JLINK_OpenEx(...)
Firmware: J-Link V9 compiled Jun  2 2222 22:22:22
Hardware: V9.00
S/N: 30000299
Feature(s): GDB, RDI, FlashBP, FlashDL, JFlash, RDDIWEBSRV Webserver running on local port 19080 (0021ms, 0023ms total)
T6534 000:002   returns O.K. (0021ms, 0023ms total)
T6534 000:023 JLINK_GetEmuCaps()  returns 0xB9FF7BBF (0000ms, 0023ms total)
T6534 000:023 JLINK_TIF_GetAvailable(...) (0000ms, 0023ms total)
T6534 000:023 JLINK_SetErrorOutHandler(...) (0000ms, 0023ms total)
T6534 000:023 JLINK_ExecCommand("ProjectFile = "E:\2018\robomaster2018\ÐÂ°æ²½±ø³µ\src\ShanghaiTech_Robomasters2018\Firmware\MDK-ARM\JLinkSettings.ini"", ...). Device "STM32F427II" selected.  returns 0x00 (0133ms, 0156ms total)
T6534 000:156 JLINK_ExecCommand("Device = STM32F427IIHx", ...). Device "STM32F427II" selected.  returns 0x00 (0004ms, 0160ms total)
T6534 000:160 JLINK_ExecCommand("DisableConnectionTimeout", ...).   returns 0x01 (0000ms, 0160ms total)
T6534 000:160 JLINK_GetHardwareVersion()  returns 0x15F90 (0000ms, 0160ms total)
T6534 000:160 JLINK_GetDLLVersion()  returns 61603 (0000ms, 0160ms total)
T6534 000:160 JLINK_GetFirmwareString(...) (0000ms, 0160ms total)
T6534 000:160 JLINK_GetDLLVersion()  returns 61603 (0000ms, 0160ms total)
T6534 000:160 JLINK_GetCompileDateTime() (0000ms, 0160ms total)
T6534 000:160 JLINK_GetFirmwareString(...) (0000ms, 0160ms total)
T6534 000:160 JLINK_GetHardwareVersion()  returns 0x15F90 (0000ms, 0160ms total)
T6534 000:160 JLINK_TIF_Select(JLINKARM_TIF_SWD)  returns 0x00 (0001ms, 0161ms total)
T6534 000:161 JLINK_SetSpeed(500) (0000ms, 0161ms total)
T6534 000:161 JLINK_GetId() >0x10B TIF>Found SW-DP with ID 0x2BA01477 >0x0D TIF> >0x28 TIF> >0x0D TIF> >0x28 TIF> >0x0D TIF> >0x28 TIF> >0x0D TIF> >0x28 TIF> >0x0D TIF> >0x21 TIF> >0x0D TIF> >0x28 TIF> >0x0D TIF> >0x28 TIF> >0x0D TIF> >0x28 TIF> >0x0D TIF> >0x21 TIF> >0x0D TIF> >0x21 TIF> >0x0D TIF> >0x28 TIF> >0x0D TIF> >0x21 TIF> >0x0D TIF> >0x21 TIF> >0x0D TIF> >0x28 TIF> >0x0D TIF> >0x21 TIF> >0x0D TIF> >0x21 TIF> >0x0D TIF> >0x28 TIF> >0x0D TIF> >0x21 TIF> >0x0D TIF> >0x21 TIF> >0x0D TIF> >0x28 TIF>
 >0x0D TIF> >0x21 TIF> >0x0D TIF> >0x21 TIF> >0x0D TIF> >0x28 TIF> >0x0D TIF> >0x21 TIF> >0x0D TIF> >0x21 TIF> >0x0D TIF> >0x28 TIF> >0x0D TIF> >0x21 TIF> >0x0D TIF> >0x21 TIF> >0x10B TIF>Found SW-DP with ID 0x2BA01477 >0x0D TIF> >0x28 TIF> >0x0D TIF> >0x28 TIF> >0x0D TIF> >0x28 TIF> >0x0D TIF> >0x28 TIF> >0x0D TIF> >0x21 TIF> >0x0D TIF> >0x28 TIF>Scanning APs, stopping at first AHB-AP found. >0x0D TIF> >0x28 TIF> >0x0D TIF> >0x21 TIF> >0x0D TIF> >0x21 TIF>AP[0] IDR: 0x24770011 (AHB-AP) >0x0D TIF>
 >0x28 TIF> >0x0D TIF> >0x21 TIF> >0x0D TIF> >0x21 TIF>AHB-AP ROM: 0xE00FF000 (Base addr. of first ROM table) >0x0D TIF> >0x28 TIF> >0x0D TIF> >0x28 TIF> >0x0D TIF> >0x28 TIF> >0x0D TIF> >0x21 TIF> >0x0D TIF> >0x21 TIF> >0x0D TIF> >0x28 TIF> >0x0D TIF> >0x21 TIF> >0x0D TIF> >0x21 TIF>CPUID reg: 0x410FC241. Implementer code: 0x41 (ARM)Found Cortex-M4 r0p1, Little endian. -- CPU_ReadMem(4 bytes @ 0xE000EDF0) -- CPU_WriteMem(4 bytes @ 0xE000EDF0) -- CPU_ReadMem(4 bytes @ 0xE0002000)
FPUnit: 6 code (BP) slots and 2 literal slots -- CPU_ReadMem(4 bytes @ 0xE000EDFC) -- CPU_WriteMem(4 bytes @ 0xE000EDFC) -- CPU_ReadMem(4 bytes @ 0xE0001000) -- CPU_WriteMem(4 bytes @ 0xE0001000) -- CPU_ReadMem(4 bytes @ 0xE000ED88) -- CPU_WriteMem(4 bytes @ 0xE000ED88) -- CPU_ReadMem(4 bytes @ 0xE000ED88) -- CPU_WriteMem(4 bytes @ 0xE000ED88)CoreSight components:ROMTbl[0] @ E00FF000 -- CPU_ReadMem(16 bytes @ 0xE00FF000) -- CPU_ReadMem(16 bytes @ 0xE000EFF0) -- CPU_ReadMem(16 bytes @ 0xE000EFE0)
ROMTbl[0][0]: E000E000, CID: B105E00D, PID: 000BB00C SCS -- CPU_ReadMem(16 bytes @ 0xE0001FF0) -- CPU_ReadMem(16 bytes @ 0xE0001FE0)ROMTbl[0][1]: E0001000, CID: B105E00D, PID: 003BB002 DWT -- CPU_ReadMem(16 bytes @ 0xE0002FF0) -- CPU_ReadMem(16 bytes @ 0xE0002FE0)ROMTbl[0][2]: E0002000, CID: B105E00D, PID: 002BB003 FPB -- CPU_ReadMem(16 bytes @ 0xE0000FF0) -- CPU_ReadMem(16 bytes @ 0xE0000FE0)ROMTbl[0][3]: E0000000, CID: B105E00D, PID: 003BB001 ITM -- CPU_ReadMem(16 bytes @ 0xE00FF010)
 -- CPU_ReadMem(16 bytes @ 0xE0040FF0) -- CPU_ReadMem(16 bytes @ 0xE0040FE0)ROMTbl[0][4]: E0040000, CID: B105900D, PID: 000BB9A1 TPIU -- CPU_ReadMem(16 bytes @ 0xE0041FF0) -- CPU_ReadMem(16 bytes @ 0xE0041FE0)ROMTbl[0][5]: E0041000, CID: B105900D, PID: 000BB925 ETM >0x0D TIF> >0x21 TIF>  returns 0x2BA01477 (0048ms, 0209ms total)
T6534 000:210 JLINK_GetDLLVersion()  returns 61603 (0000ms, 0209ms total)
T6534 000:210 JLINK_CORE_GetFound()  returns 0xE0000FF (0000ms, 0209ms total)
T6534 000:210 JLINK_GetDebugInfo(0x100 = JLINKARM_ROM_TABLE_ADDR_INDEX) -- Value=0xE00FF000  returns 0x00 (0000ms, 0209ms total)
T6534 000:210 JLINK_GetDebugInfo(0x100 = JLINKARM_ROM_TABLE_ADDR_INDEX) -- Value=0xE00FF000  returns 0x00 (0000ms, 0209ms total)
T6534 000:210 JLINK_GetDebugInfo(0x101 = JLINKARM_DEBUG_INFO_ETM_ADDR_INDEX) -- Value=0xE0041000  returns 0x00 (0000ms, 0209ms total)
T6534 000:210 JLINK_ReadMemEx(0xE0041FD0, 0x0020 Bytes, ..., Flags = 0x02000004) -- CPU_ReadMem(32 bytes @ 0xE0041FD0) - Data: 04 00 00 00 00 00 00 00 00 00 00 00 00 00 00 00 ...  returns 0x20 (0001ms, 0210ms total)
T6534 000:211 JLINK_GetDebugInfo(0x102 = JLINKARM_DEBUG_INFO_MTB_ADDR_INDEX) -- Value=0x00000000  returns 0x00 (0000ms, 0210ms total)
T6534 000:211 JLINK_GetDebugInfo(0x103 = JLINKARM_DEBUG_INFO_TPIU_ADDR_INDEX) -- Value=0xE0040000  returns 0x00 (0000ms, 0210ms total)
T6534 000:211 JLINK_GetDebugInfo(0x104 = JLINKARM_DEBUG_INFO_ITM_ADDR_INDEX) -- Value=0xE0000000  returns 0x00 (0000ms, 0210ms total)
T6534 000:211 JLINK_GetDebugInfo(0x105 = JLINKARM_DEBUG_INFO_DWT_ADDR_INDEX) -- Value=0xE0001000  returns 0x00 (0000ms, 0210ms total)
T6534 000:211 JLINK_GetDebugInfo(0x106 = JLINKARM_DEBUG_INFO_FPB_ADDR_INDEX) -- Value=0xE0002000  returns 0x00 (0000ms, 0210ms total)
T6534 000:211 JLINK_GetDebugInfo(0x107 = JLINKARM_DEBUG_INFO_NVIC_ADDR_INDEX) -- Value=0xE000E000  returns 0x00 (0000ms, 0210ms total)
T6534 000:211 JLINK_GetDebugInfo(0x10C = JLINKARM_DEBUG_INFO_DBG_ADDR_INDEX) -- Value=0xE000EDF0  returns 0x00 (0000ms, 0210ms total)
T6534 000:211 JLINK_ReadMemU32(0xE000EF40, 0x0001 Items, ...) -- CPU_ReadMem(4 bytes @ 0xE000EF40) - Data: 21 00 11 10  returns 0x01 (0001ms, 0211ms total)
T6534 000:212 JLINK_ReadMemU32(0xE000EF44, 0x0001 Items, ...) -- CPU_ReadMem(4 bytes @ 0xE000EF44) - Data: 11 00 00 11  returns 0x01 (0001ms, 0212ms total)
T6534 000:213 JLINK_ReadMemU32(0xE000ED00, 0x0001 Items, ...) -- CPU_ReadMem(4 bytes @ 0xE000ED00) - Data: 41 C2 0F 41  returns 0x01 (0001ms, 0213ms total)
T6534 000:214 JLINK_GetDebugInfo(0x10F = JLINKARM_DEBUG_INFO_HAS_CORTEX_M_SECURITY_EXT_INDEX) -- Value=0x00000000  returns 0x00 (0000ms, 0213ms total)
T6534 000:214 JLINK_SetResetType(JLINKARM_CM3_RESET_TYPE_NORMAL)  returns JLINKARM_CM3_RESET_TYPE_NORMAL (0000ms, 0213ms total)
T6534 000:214 JLINK_Reset() -- CPU is running -- CPU_WriteMem(4 bytes @ 0xE000EDF0) -- CPU is running -- CPU_WriteMem(4 bytes @ 0xE000EDFC) >0x35 TIF>Setting AIRCR.SYSRESETREQ -- CPU is running -- CPU_WriteMem(4 bytes @ 0xE000ED0C) >0x0D TIF> >0x28 TIF> -- CPU_ReadMem(4 bytes @ 0xE000ED0C) -- CPU_ReadMem(4 bytes @ 0xE000EDF0) -- CPU_ReadMem(4 bytes @ 0xE000EDF0) -- CPU_ReadMem(4 bytes @ 0xE000EDF0) -- CPU is running -- CPU_WriteMem(4 bytes @ 0xE000EDF0) -- CPU is running
 -- CPU_WriteMem(4 bytes @ 0xE000EDFC) -- CPU_ReadMem(4 bytes @ 0xE000EDF0) -- CPU_WriteMem(4 bytes @ 0xE0002000) -- CPU_ReadMem(4 bytes @ 0xE000EDFC) -- CPU_ReadMem(4 bytes @ 0xE0001000) (0081ms, 0294ms total)
T6534 000:296 JLINK_ReadReg(R15 (PC))  returns 0x0800027C (0000ms, 0294ms total)
T6534 000:296 JLINK_ReadReg(XPSR)  returns 0x01000000 (0000ms, 0294ms total)
T6534 000:296 JLINK_Halt()  returns 0x00 (0000ms, 0294ms total)
T6534 000:296 JLINK_ReadMemU32(0xE000EDF0, 0x0001 Items, ...) -- CPU_ReadMem(4 bytes @ 0xE000EDF0) - Data: 03 00 03 00  returns 0x01 (0001ms, 0295ms total)
T6534 000:297 JLINK_WriteU32(0xE000EDF0, 0xA05F0003) -- CPU_WriteMem(4 bytes @ 0xE000EDF0)  returns 0x00 (0001ms, 0296ms total)
T6534 000:298 JLINK_WriteU32(0xE000EDFC, 0x01000000) -- CPU_WriteMem(4 bytes @ 0xE000EDFC)  returns 0x00 (0001ms, 0297ms total)
T6534 000:299 JLINK_GetHWStatus(...)  returns 0x00 (0000ms, 0297ms total)
T6534 000:299 JLINK_GetNumBPUnits(Type = 0xFFFFFF00)  returns 0x06 (0000ms, 0297ms total)
T6534 000:299 JLINK_GetNumBPUnits(Type = 0xF0)  returns 0x2000 (0000ms, 0297ms total)
T6534 000:299 JLINK_GetNumWPUnits()  returns 0x04 (0000ms, 0297ms total)
T6534 000:299 JLINK_GetSpeed()  returns 0x1F4 (0000ms, 0297ms total)
T6534 000:299 JLINK_ReadMemU32(0xE000E004, 0x0001 Items, ...) -- CPU_ReadMem(4 bytes @ 0xE000E004) - Data: 02 00 00 00  returns 0x01 (0001ms, 0298ms total)
T6534 000:300 JLINK_ReadMemU32(0xE000E004, 0x0001 Items, ...) -- CPU_ReadMem(4 bytes @ 0xE000E004) - Data: 02 00 00 00  returns 0x01 (0001ms, 0299ms total)
T6534 000:301 JLINK_WriteMemEx(0xE0001000, 0x001C Bytes, ..., Flags = 0x02000004) - Data: 01 00 00 00 00 00 00 00 00 00 00 00 00 00 00 00 ... -- CPU_WriteMem(28 bytes @ 0xE0001000)  returns 0x1C (0002ms, 0301ms total)
T6534 000:303 JLINK_ReadReg(R15 (PC))  returns 0x0800027C (0000ms, 0301ms total)
T6534 000:303 JLINK_ReadReg(XPSR)  returns 0x01000000 (0000ms, 0301ms total)
T6534 000:303 JLINK_WriteU32(0xE0041FB0, 0xC5ACCE55) -- CPU_WriteMem(4 bytes @ 0xE0041FB0)  returns 0x00 (0001ms, 0302ms total)
T6534 000:304 JLINK_ReadMemU32(0xE0041000, 0x0001 Items, ...) -- CPU_ReadMem(4 bytes @ 0xE0041000) - Data: 01 00 00 00  returns 0x01 (0001ms, 0303ms total)
T6534 000:305 JLINK_WriteU32(0xE0041000, 0x00000000) -- CPU_WriteMem(4 bytes @ 0xE0041000)  returns 0x00 (0001ms, 0304ms total)
T6534 000:310 JLINK_SWO_Control(JLINKARM_SWO_CMD_GET_SPEED_INFO, ...)  returns 0x00 (0001ms, 0305ms total)
T6534 000:311 JLINK_SWO_Control(JLINKARM_SWO_CMD_STOP, ...)  returns 0x00 (0000ms, 0305ms total)
T6534 000:311 JLINK_SWO_Control(JLINKARM_SWO_CMD_START, ...) -- UART -- 7304347bps -- CPU_ReadMem(4 bytes @ 0xE0042004)  returns 0x00 (0002ms, 0307ms total)
T6534 000:313 JLINK_WriteU32(0xE0040004, 0x00000001) -- CPU_WriteMem(4 bytes @ 0xE0040004)  returns 0x00 (0001ms, 0308ms total)
T6534 000:314 JLINK_WriteU32(0xE0040010, 0x00000016)  returns 0x00 (0000ms, 0308ms total)
T6534 000:314 JLINK_WriteU32(0xE00400F0, 0x00000002)  returns 0x00 (0000ms, 0308ms total)
T6534 000:314 JLINK_WriteU32(0xE0040304, 0x00000000)  returns 0x00 (0000ms, 0308ms total)
T6534 000:314 JLINK_WriteU32(0xE0000FB0, 0xC5ACCE55) -- CPU_WriteMem(4 bytes @ 0xE0000FB0)  returns 0x00 (0001ms, 0309ms total)
T6534 000:315 JLINK_WriteU32(0xE0000E80, 0x0001000D)  returns 0x00 (0000ms, 0309ms total)
T6534 000:315 JLINK_WriteU32(0xE0000E00, 0xFFFFFFFF)  returns 0x00 (0000ms, 0309ms total)
T6534 000:315 JLINK_WriteU32(0xE0000E40, 0x00000008)  returns 0x00 (0000ms, 0309ms total)
T6534 000:315 JLINK_WriteU32(0xE0001000, 0x00010A1F)  returns 0x00 (0000ms, 0309ms total)
T6534 000:464 JLINK_SetResetType(JLINKARM_CM3_RESET_TYPE_NORMAL)  returns JLINKARM_CM3_RESET_TYPE_NORMAL (0000ms, 0309ms total)
T6534 000:464 JLINK_Reset() -- CPU_WriteMem(4 bytes @ 0xE0000E00) -- CPU_WriteMem(4 bytes @ 0xE0000E40) -- CPU_WriteMem(4 bytes @ 0xE0000E80) -- CPU_WriteMem(4 bytes @ 0xE0001000) -- CPU_WriteMem(4 bytes @ 0xE0040010) -- CPU_WriteMem(4 bytes @ 0xE00400F0) -- CPU_WriteMem(4 bytes @ 0xE0040304) -- CPU_WriteMem(4 bytes @ 0xE000EDF0) -- CPU_WriteMem(4 bytes @ 0xE000EDFC) >0x35 TIF>Setting AIRCR.SYSRESETREQ -- CPU_WriteMem(4 bytes @ 0xE000ED0C) >0x0D TIF> >0x28 TIF> -- CPU_ReadMem(4 bytes @ 0xE000ED0C)
 -- CPU_ReadMem(4 bytes @ 0xE000EDF0) -- CPU_ReadMem(4 bytes @ 0xE000EDF0) -- CPU_ReadMem(4 bytes @ 0xE000EDF0) -- CPU_WriteMem(4 bytes @ 0xE000EDF0) -- CPU_WriteMem(4 bytes @ 0xE000EDFC) -- CPU_ReadMem(4 bytes @ 0xE000EDF0) -- CPU_WriteMem(4 bytes @ 0xE0002000) -- CPU_ReadMem(4 bytes @ 0xE000EDFC) -- CPU_ReadMem(4 bytes @ 0xE0001000) -- CPU_ReadMem(4 bytes @ 0xE0042004) (0088ms, 0397ms total)
T6534 000:552 JLINK_WriteU32(0xE000EDFC, 0x01000000) -- CPU_WriteMem(4 bytes @ 0xE000EDFC)  returns 0x00 (0001ms, 0398ms total)
T6534 000:553 JLINK_ReadReg(R15 (PC))  returns 0x0800027C (0000ms, 0398ms total)
T6534 000:553 JLINK_ReadReg(XPSR)  returns 0x01000000 (0000ms, 0398ms total)
T6534 000:562 JLINK_ReadMemEx(0x0800027C, 0x003C Bytes, ..., Flags = 0x02000000) -- CPU_ReadMem(128 bytes @ 0x08000240) -- Updating C cache (128 bytes @ 0x08000240) -- Read from C cache (60 bytes @ 0x0800027C) - Data: 06 48 80 47 06 48 00 47 FE E7 FE E7 FE E7 FE E7 ...  returns 0x3C (0004ms, 0402ms total)
T6534 000:825 JLINK_WriteU32(0xE0001008, 0x00000000)  returns 0x00 (0000ms, 0402ms total)
T6534 000:825 JLINK_WriteU32(0xE000100C, 0x00000000)  returns 0x00 (0000ms, 0402ms total)
T6534 000:825 JLINK_WriteU32(0xE0001010, 0x00000000)  returns 0x00 (0000ms, 0402ms total)
T6534 000:825 JLINK_WriteU32(0xE0001014, 0x00000000)  returns 0x00 (0000ms, 0402ms total)
T6534 000:825 JLINK_WriteU32(0xE0001018, 0x00000000)  returns 0x00 (0000ms, 0402ms total)
T6534 004:108 JLINK_ReadReg(R0)  returns 0x00000000 (0001ms, 0403ms total)
T6534 004:109 JLINK_ReadReg(R1)  returns 0x00000000 (0000ms, 0403ms total)
T6534 004:109 JLINK_ReadReg(R2)  returns 0x00000000 (0000ms, 0403ms total)
T6534 004:109 JLINK_ReadReg(R3)  returns 0x00000000 (0000ms, 0403ms total)
T6534 004:109 JLINK_ReadReg(R4)  returns 0x00000000 (0000ms, 0403ms total)
T6534 004:109 JLINK_ReadReg(R5)  returns 0x00000000 (0000ms, 0403ms total)
T6534 004:109 JLINK_ReadReg(R6)  returns 0x00000000 (0000ms, 0403ms total)
T6534 004:109 JLINK_ReadReg(R7)  returns 0x00000000 (0000ms, 0403ms total)
T6534 004:109 JLINK_ReadReg(R8)  returns 0x00000000 (0000ms, 0403ms total)
T6534 004:109 JLINK_ReadReg(R9)  returns 0x00000000 (0000ms, 0403ms total)
T6534 004:109 JLINK_ReadReg(R10)  returns 0x00000000 (0000ms, 0403ms total)
T6534 004:109 JLINK_ReadReg(R11)  returns 0x00000000 (0000ms, 0403ms total)
T6534 004:109 JLINK_ReadReg(R12)  returns 0x00000000 (0000ms, 0403ms total)
T6534 004:109 JLINK_ReadReg(R13 (SP))  returns 0x20006660 (0000ms, 0403ms total)
T6534 004:109 JLINK_ReadReg(R14)  returns 0xFFFFFFFF (0000ms, 0403ms total)
T6534 004:109 JLINK_ReadReg(R15 (PC))  returns 0x0800027C (0000ms, 0403ms total)
T6534 004:109 JLINK_ReadReg(XPSR)  returns 0x01000000 (0000ms, 0403ms total)
T6534 004:109 JLINK_ReadReg(MSP)  returns 0x20006660 (0000ms, 0403ms total)
T6534 004:109 JLINK_ReadReg(PSP)  returns 0x00000000 (0000ms, 0403ms total)
T6534 004:109 JLINK_ReadReg(CFBP)  returns 0x00000000 (0000ms, 0403ms total)
T6534 004:109 JLINK_ReadReg(FPSCR)  returns 0x00000000 (0019ms, 0422ms total)
T6534 004:128 JLINK_ReadReg(FPS0)  returns 0x00000000 (0000ms, 0422ms total)
T6534 004:129 JLINK_ReadReg(FPS1)  returns 0x00000000 (0000ms, 0422ms total)
T6534 004:129 JLINK_ReadReg(FPS2)  returns 0x00000000 (0000ms, 0422ms total)
T6534 004:129 JLINK_ReadReg(FPS3)  returns 0x00000000 (0000ms, 0422ms total)
T6534 004:129 JLINK_ReadReg(FPS4)  returns 0x00000000 (0000ms, 0422ms total)
T6534 004:129 JLINK_ReadReg(FPS5)  returns 0x00000000 (0000ms, 0422ms total)
T6534 004:129 JLINK_ReadReg(FPS6)  returns 0x00000000 (0000ms, 0422ms total)
T6534 004:129 JLINK_ReadReg(FPS7)  returns 0x00000000 (0000ms, 0422ms total)
T6534 004:129 JLINK_ReadReg(FPS8)  returns 0x00000000 (0000ms, 0422ms total)
T6534 004:129 JLINK_ReadReg(FPS9)  returns 0x00000000 (0000ms, 0422ms total)
T6534 004:129 JLINK_ReadReg(FPS10)  returns 0x00000000 (0000ms, 0422ms total)
T6534 004:129 JLINK_ReadReg(FPS11)  returns 0x00000000 (0000ms, 0422ms total)
T6534 004:129 JLINK_ReadReg(FPS12)  returns 0x00000000 (0000ms, 0422ms total)
T6534 004:129 JLINK_ReadReg(FPS13)  returns 0x00000000 (0000ms, 0422ms total)
T6534 004:129 JLINK_ReadReg(FPS14)  returns 0x00000000 (0000ms, 0422ms total)
T6534 004:129 JLINK_ReadReg(FPS15)  returns 0x00000000 (0000ms, 0422ms total)
T6534 004:129 JLINK_ReadReg(FPS16)  returns 0x00000000 (0000ms, 0422ms total)
T6534 004:129 JLINK_ReadReg(FPS17)  returns 0x00000000 (0000ms, 0422ms total)
T6534 004:129 JLINK_ReadReg(FPS18)  returns 0x00000000 (0000ms, 0422ms total)
T6534 004:129 JLINK_ReadReg(FPS19)  returns 0x00000000 (0000ms, 0422ms total)
T6534 004:129 JLINK_ReadReg(FPS20)  returns 0x00000000 (0000ms, 0422ms total)
T6534 004:129 JLINK_ReadReg(FPS21)  returns 0x00000000 (0000ms, 0422ms total)
T6534 004:129 JLINK_ReadReg(FPS22)  returns 0x00000000 (0000ms, 0422ms total)
T6534 004:129 JLINK_ReadReg(FPS23)  returns 0x00000000 (0000ms, 0422ms total)
T6534 004:129 JLINK_ReadReg(FPS24)  returns 0x00000000 (0000ms, 0422ms total)
T6534 004:129 JLINK_ReadReg(FPS25)  returns 0x00000000 (0000ms, 0422ms total)
T6534 004:129 JLINK_ReadReg(FPS26)  returns 0x00000000 (0000ms, 0422ms total)
T6534 004:129 JLINK_ReadReg(FPS27)  returns 0x00000000 (0000ms, 0422ms total)
T6534 004:129 JLINK_ReadReg(FPS28)  returns 0x00000000 (0000ms, 0422ms total)
T6534 004:129 JLINK_ReadReg(FPS29)  returns 0x00000000 (0000ms, 0422ms total)
T6534 004:129 JLINK_ReadReg(FPS30)  returns 0x00000000 (0000ms, 0422ms total)
T6534 004:129 JLINK_ReadReg(FPS31)  returns 0x00000000 (0000ms, 0422ms total)
T6534 004:130 JLINK_ReadMemEx(0x20004144, 0x0020 Bytes, ..., Flags = 0x02000000) -- CPU_ReadMem(64 bytes @ 0x20004140) -- Updating C cache (64 bytes @ 0x20004140) -- Read from C cache (32 bytes @ 0x20004144) - Data: 00 00 00 00 00 00 00 00 00 00 00 00 00 00 00 00 ...  returns 0x20 (0002ms, 0424ms total)
T6534 004:136 JLINK_ReadMemEx(0x200041A8, 0x0020 Bytes, ..., Flags = 0x02000000) -- CPU_ReadMem(128 bytes @ 0x20004180) -- Updating C cache (128 bytes @ 0x20004180) -- Read from C cache (32 bytes @ 0x200041A8) - Data: 00 00 00 00 00 00 00 00 00 00 00 00 00 00 00 00 ...  returns 0x20 (0004ms, 0428ms total)
T6534 004:147 JLINK_ReadMemEx(0x200001B1, 0x0001 Bytes, ..., Flags = 0x02000000) -- CPU_ReadMem(64 bytes @ 0x20000180) -- Updating C cache (64 bytes @ 0x20000180) -- Read from C cache (1 bytes @ 0x200001B1) - Data: 70  returns 0x01 (0003ms, 0431ms total)
T5330 004:214 JLINK_ReadMemEx(0x0800027C, 0x0002 Bytes, ..., Flags = 0x02000000) -- Read from C cache (2 bytes @ 0x0800027C) - Data: 06 48  returns 0x02 (0000ms, 0431ms total)
T5330 004:214 JLINK_SetBPEx(Addr = 0x0800602C, Type = 0xFFFFFFF2)  returns 0x00000001 (0000ms, 0431ms total)
T5330 004:214 JLINK_ReadMemU32(0xE0001004, 0x0001 Items, ...) - Data: 00 00 00 00  returns 0x01 (0000ms, 0431ms total)
T5330 004:214 JLINK_WriteU32(0xE0001004, 0x000003FF)  returns 0x00 (0000ms, 0431ms total)
T5330 004:214 JLINK_WriteU32(0xE0001000, 0x00410A1F)  returns 0x00 (0000ms, 0431ms total)
T5330 004:214 JLINK_WriteU32(0xE0000E80, 0x0001000F)  returns 0x00 (0000ms, 0431ms total)
T5330 004:214 JLINK_SWO_Control(JLINKARM_SWO_CMD_GET_NUM_BYTES, ...)  returns 0x00 (0000ms, 0431ms total)
T5330 004:214 JLINK_Go() -- CPU_WriteMem(4 bytes @ 0xE0002000) -- CPU_WriteMem(4 bytes @ 0xE0001000) -- CPU_ReadMem(4 bytes @ 0xE0001000) -- CPU_WriteMem(4 bytes @ 0xE0000E80) -- CPU_WriteMem(4 bytes @ 0xE0001008) -- CPU_WriteMem(4 bytes @ 0xE000100C) -- CPU_WriteMem(4 bytes @ 0xE0001010) -- CPU_WriteMem(4 bytes @ 0xE0001014) -- CPU_WriteMem(4 bytes @ 0xE0001018) -- CPU_WriteMem(4 bytes @ 0xE0002008) -- CPU_WriteMem(4 bytes @ 0xE000200C) -- CPU_WriteMem(4 bytes @ 0xE0002010)
 -- CPU_WriteMem(4 bytes @ 0xE0002014) -- CPU_WriteMem(4 bytes @ 0xE0002018) -- CPU_WriteMem(4 bytes @ 0xE000201C) -- CPU_WriteMem(4 bytes @ 0xE0001004) (0013ms, 0444ms total)
T5330 004:227 JLINK_WriteU32(0xE0001000, 0x00010A1F) -- CPU is running -- CPU_WriteMem(4 bytes @ 0xE0001000)  returns 0x00 (0001ms, 0445ms total)
T5330 004:329 JLINK_SWO_Read(..., Offset = 0x00, NumBytes = 0x400000) - Data:  NumBytesRead = 0x00 (0000ms, 0445ms total)
T5330 004:331 JLINK_SWO_Control(JLINKARM_SWO_CMD_FLUSH, ...)  returns 0x00 (0000ms, 0445ms total)
T5330 004:331 JLINK_IsHalted()  returns TRUE (0011ms, 0456ms total)
T5330 004:342 JLINK_Halt()  returns 0x00 (0000ms, 0445ms total)
T5330 004:342 JLINK_IsHalted()  returns TRUE (0000ms, 0445ms total)
T5330 004:342 JLINK_IsHalted()  returns TRUE (0000ms, 0445ms total)
T5330 004:342 JLINK_IsHalted()  returns TRUE (0001ms, 0446ms total)
T5330 004:343 JLINK_ReadReg(R15 (PC))  returns 0x0800602C (0000ms, 0445ms total)
T5330 004:343 JLINK_ReadReg(XPSR)  returns 0x61000000 (0000ms, 0445ms total)
T5330 004:343 JLINK_SWO_Read(..., Offset = 0x00, NumBytes = 0x400000) - Data:  NumBytesRead = 0x00 (0000ms, 0445ms total)
T5330 004:345 JLINK_SWO_Control(JLINKARM_SWO_CMD_FLUSH, ...)  returns 0x00 (0000ms, 0445ms total)
T5330 004:345 JLINK_ClrBPEx(BPHandle = 0x00000001)  returns 0x00 (0000ms, 0445ms total)
T5330 004:345 JLINK_ReadMemU32(0xE000ED30, 0x0001 Items, ...) -- CPU_ReadMem(4 bytes @ 0xE000ED30) - Data: 02 00 00 00  returns 0x01 (0001ms, 0446ms total)
T5330 004:346 JLINK_ReadMemU32(0xE0001028, 0x0001 Items, ...) -- CPU_ReadMem(4 bytes @ 0xE0001028) - Data: 00 00 00 00  returns 0x01 (0001ms, 0447ms total)
T5330 004:347 JLINK_ReadMemU32(0xE0001038, 0x0001 Items, ...) -- CPU_ReadMem(4 bytes @ 0xE0001038) - Data: 00 02 00 00  returns 0x01 (0001ms, 0448ms total)
T5330 004:348 JLINK_ReadMemU32(0xE0001048, 0x0001 Items, ...) -- CPU_ReadMem(4 bytes @ 0xE0001048) - Data: 00 00 00 00  returns 0x01 (0001ms, 0449ms total)
T5330 004:349 JLINK_ReadMemU32(0xE0001058, 0x0001 Items, ...) -- CPU_ReadMem(4 bytes @ 0xE0001058) - Data: 00 00 00 00  returns 0x01 (0001ms, 0450ms total)
T5330 004:350 JLINK_ReadReg(R0)  returns 0x0800602D (0000ms, 0450ms total)
T5330 004:350 JLINK_ReadReg(R1)  returns 0x20006660 (0000ms, 0450ms total)
T5330 004:350 JLINK_ReadReg(R2)  returns 0x00000000 (0000ms, 0450ms total)
T5330 004:350 JLINK_ReadReg(R3)  returns 0x08005CB1 (0000ms, 0450ms total)
T5330 004:350 JLINK_ReadReg(R4)  returns 0x08007A48 (0000ms, 0450ms total)
T5330 004:350 JLINK_ReadReg(R5)  returns 0x08007A48 (0000ms, 0450ms total)
T5330 004:350 JLINK_ReadReg(R6)  returns 0x00000000 (0000ms, 0450ms total)
T5330 004:350 JLINK_ReadReg(R7)  returns 0x00000000 (0000ms, 0450ms total)
T5330 004:350 JLINK_ReadReg(R8)  returns 0x00000000 (0001ms, 0451ms total)
T5330 004:351 JLINK_ReadReg(R9)  returns 0x00000000 (0000ms, 0451ms total)
T5330 004:351 JLINK_ReadReg(R10)  returns 0x00000000 (0000ms, 0451ms total)
T5330 004:351 JLINK_ReadReg(R11)  returns 0x00000000 (0000ms, 0451ms total)
T5330 004:351 JLINK_ReadReg(R12)  returns 0x00000000 (0000ms, 0451ms total)
T5330 004:351 JLINK_ReadReg(R13 (SP))  returns 0x20006660 (0000ms, 0451ms total)
T5330 004:351 JLINK_ReadReg(R14)  returns 0x08000331 (0000ms, 0451ms total)
T5330 004:351 JLINK_ReadReg(R15 (PC))  returns 0x0800602C (0000ms, 0451ms total)
T5330 004:351 JLINK_ReadReg(XPSR)  returns 0x61000000 (0000ms, 0451ms total)
T5330 004:351 JLINK_ReadReg(MSP)  returns 0x20006660 (0000ms, 0451ms total)
T5330 004:351 JLINK_ReadReg(PSP)  returns 0x00000000 (0000ms, 0451ms total)
T5330 004:351 JLINK_ReadReg(CFBP)  returns 0x00000000 (0000ms, 0451ms total)
T5330 004:351 JLINK_ReadReg(FPSCR)  returns 0x00000000 (0018ms, 0469ms total)
T5330 004:370 JLINK_ReadReg(FPS0)  returns 0x00000000 (0000ms, 0469ms total)
T5330 004:370 JLINK_ReadReg(FPS1)  returns 0x00000000 (0000ms, 0469ms total)
T5330 004:370 JLINK_ReadReg(FPS2)  returns 0x00000000 (0000ms, 0469ms total)
T5330 004:371 JLINK_ReadReg(FPS3)  returns 0x00000000 (0000ms, 0470ms total)
T5330 004:371 JLINK_ReadReg(FPS4)  returns 0x00000000 (0000ms, 0470ms total)
T5330 004:371 JLINK_ReadReg(FPS5)  returns 0x00000000 (0000ms, 0470ms total)
T5330 004:371 JLINK_ReadReg(FPS6)  returns 0x00000000 (0000ms, 0470ms total)
T5330 004:371 JLINK_ReadReg(FPS7)  returns 0x00000000 (0000ms, 0470ms total)
T5330 004:371 JLINK_ReadReg(FPS8)  returns 0x00000000 (0000ms, 0470ms total)
T5330 004:371 JLINK_ReadReg(FPS9)  returns 0x00000000 (0000ms, 0470ms total)
T5330 004:371 JLINK_ReadReg(FPS10)  returns 0x00000000 (0000ms, 0470ms total)
T5330 004:371 JLINK_ReadReg(FPS11)  returns 0x00000000 (0000ms, 0470ms total)
T5330 004:371 JLINK_ReadReg(FPS12)  returns 0x00000000 (0000ms, 0470ms total)
T5330 004:371 JLINK_ReadReg(FPS13)  returns 0x00000000 (0000ms, 0470ms total)
T5330 004:371 JLINK_ReadReg(FPS14)  returns 0x00000000 (0000ms, 0470ms total)
T5330 004:371 JLINK_ReadReg(FPS15)  returns 0x00000000 (0000ms, 0470ms total)
T5330 004:371 JLINK_ReadReg(FPS16)  returns 0x00000000 (0000ms, 0470ms total)
T5330 004:371 JLINK_ReadReg(FPS17)  returns 0x00000000 (0000ms, 0470ms total)
T5330 004:371 JLINK_ReadReg(FPS18)  returns 0x00000000 (0000ms, 0470ms total)
T5330 004:371 JLINK_ReadReg(FPS19)  returns 0x00000000 (0000ms, 0470ms total)
T5330 004:371 JLINK_ReadReg(FPS20)  returns 0x00000000 (0000ms, 0470ms total)
T5330 004:371 JLINK_ReadReg(FPS21)  returns 0x00000000 (0000ms, 0470ms total)
T5330 004:371 JLINK_ReadReg(FPS22)  returns 0x00000000 (0000ms, 0470ms total)
T5330 004:371 JLINK_ReadReg(FPS23)  returns 0x00000000 (0000ms, 0470ms total)
T5330 004:371 JLINK_ReadReg(FPS24)  returns 0x00000000 (0000ms, 0470ms total)
T5330 004:371 JLINK_ReadReg(FPS25)  returns 0x00000000 (0000ms, 0470ms total)
T5330 004:371 JLINK_ReadReg(FPS26)  returns 0x00000000 (0000ms, 0470ms total)
T5330 004:371 JLINK_ReadReg(FPS27)  returns 0x00000000 (0000ms, 0470ms total)
T5330 004:371 JLINK_ReadReg(FPS28)  returns 0x00000000 (0000ms, 0470ms total)
T5330 004:371 JLINK_ReadReg(FPS29)  returns 0x00000000 (0000ms, 0470ms total)
T5330 004:371 JLINK_ReadReg(FPS30)  returns 0x00000000 (0000ms, 0470ms total)
T5330 004:371 JLINK_ReadReg(FPS31)  returns 0x00000000 (0000ms, 0470ms total)
T6534 004:376 JLINK_ReadMemU32(0xE0001004, 0x0001 Items, ...) -- CPU_ReadMem(4 bytes @ 0xE0001004) - Data: DB AB 00 00  returns 0x01 (0001ms, 0471ms total)
T5330 011:588 JLINK_ReadMemEx(0x0800602C, 0x0002 Bytes, ..., Flags = 0x02000000) -- CPU_ReadMem(64 bytes @ 0x08006000) -- Updating C cache (64 bytes @ 0x08006000) -- Read from C cache (2 bytes @ 0x0800602C) - Data: FB F7  returns 0x02 (0002ms, 0473ms total)
T5330 011:590 JLINK_SetBPEx(Addr = 0x08006074, Type = 0xFFFFFFF2)  returns 0x00000002 (0001ms, 0474ms total)
T5330 011:591 JLINK_ReadMemU32(0xE0001004, 0x0001 Items, ...) - Data: DB AB 00 00  returns 0x01 (0000ms, 0474ms total)
T5330 011:591 JLINK_WriteU32(0xE0001004, 0x0000ABFF)  returns 0x00 (0000ms, 0474ms total)
T5330 011:591 JLINK_WriteU32(0xE0001000, 0x00410A1F)  returns 0x00 (0000ms, 0474ms total)
T5330 011:591 JLINK_WriteU32(0xE0000E80, 0x0001000F)  returns 0x00 (0000ms, 0474ms total)
T5330 011:591 JLINK_SWO_Control(JLINKARM_SWO_CMD_GET_NUM_BYTES, ...)  returns 0x00 (0000ms, 0474ms total)
T5330 011:591 JLINK_Go() -- CPU_WriteMem(4 bytes @ 0xE0002000) -- CPU_WriteMem(4 bytes @ 0xE0001000) -- CPU_ReadMem(4 bytes @ 0xE0001000) -- CPU_WriteMem(4 bytes @ 0xE0000E80) -- CPU_WriteMem(4 bytes @ 0xE0002008) -- CPU_WriteMem(4 bytes @ 0xE0001004) (0007ms, 0481ms total)
T5330 011:598 JLINK_WriteU32(0xE0001000, 0x00010A1F) -- CPU is running -- CPU_WriteMem(4 bytes @ 0xE0001000)  returns 0x00 (0001ms, 0482ms total)
T5330 011:700 JLINK_SWO_Read(..., Offset = 0x00, NumBytes = 0x400000) - Data:  NumBytesRead = 0x00 (0000ms, 0482ms total)
T5330 011:702 JLINK_SWO_Control(JLINKARM_SWO_CMD_FLUSH, ...)  returns 0x00 (0000ms, 0482ms total)
T5330 011:702 JLINK_IsHalted()  returns FALSE (0001ms, 0483ms total)
T5330 011:804 JLINK_SWO_Read(..., Offset = 0x00, NumBytes = 0x400000) - Data:  NumBytesRead = 0x00 (0000ms, 0482ms total)
T5330 011:806 JLINK_SWO_Control(JLINKARM_SWO_CMD_FLUSH, ...)  returns 0x00 (0000ms, 0482ms total)
T5330 011:806 JLINK_IsHalted()  returns TRUE (0011ms, 0493ms total)
T5330 011:817 JLINK_Halt()  returns 0x00 (0000ms, 0482ms total)
T5330 011:817 JLINK_IsHalted()  returns TRUE (0000ms, 0482ms total)
T5330 011:817 JLINK_IsHalted()  returns TRUE (0000ms, 0482ms total)
T5330 011:817 JLINK_IsHalted()  returns TRUE (0000ms, 0482ms total)
T5330 011:817 JLINK_ReadReg(R15 (PC))  returns 0x08006074 (0000ms, 0482ms total)
T5330 011:817 JLINK_ReadReg(XPSR)  returns 0x01000000 (0001ms, 0483ms total)
T5330 011:818 JLINK_SWO_Read(..., Offset = 0x00, NumBytes = 0x400000) - Data:  NumBytesRead = 0x00 (0000ms, 0483ms total)
T5330 011:820 JLINK_SWO_Control(JLINKARM_SWO_CMD_FLUSH, ...)  returns 0x00 (0000ms, 0483ms total)
T5330 011:820 JLINK_ClrBPEx(BPHandle = 0x00000002)  returns 0x00 (0000ms, 0483ms total)
T5330 011:820 JLINK_ReadMemU32(0xE000ED30, 0x0001 Items, ...) -- CPU_ReadMem(4 bytes @ 0xE000ED30) - Data: 02 00 00 00  returns 0x01 (0001ms, 0484ms total)
T5330 011:821 JLINK_ReadMemU32(0xE0001028, 0x0001 Items, ...) -- CPU_ReadMem(4 bytes @ 0xE0001028) - Data: 00 00 00 00  returns 0x01 (0001ms, 0485ms total)
T5330 011:822 JLINK_ReadMemU32(0xE0001038, 0x0001 Items, ...) -- CPU_ReadMem(4 bytes @ 0xE0001038) - Data: 00 02 00 00  returns 0x01 (0001ms, 0486ms total)
T5330 011:824 JLINK_ReadMemU32(0xE0001048, 0x0001 Items, ...) -- CPU_ReadMem(4 bytes @ 0xE0001048) - Data: 00 00 00 00  returns 0x01 (0000ms, 0486ms total)
T5330 011:824 JLINK_ReadMemU32(0xE0001058, 0x0001 Items, ...) -- CPU_ReadMem(4 bytes @ 0xE0001058) - Data: 00 00 00 00  returns 0x01 (0001ms, 0487ms total)
T5330 011:826 JLINK_ReadReg(R0)  returns 0x40021400 (0000ms, 0487ms total)
T5330 011:826 JLINK_ReadReg(R1)  returns 0x00004000 (0000ms, 0487ms total)
T5330 011:826 JLINK_ReadReg(R2)  returns 0x00000001 (0000ms, 0487ms total)
T5330 011:826 JLINK_ReadReg(R3)  returns 0x200013A8 (0000ms, 0487ms total)
T5330 011:826 JLINK_ReadReg(R4)  returns 0x08007A48 (0000ms, 0487ms total)
T5330 011:826 JLINK_ReadReg(R5)  returns 0x08007A48 (0000ms, 0487ms total)
T5330 011:826 JLINK_ReadReg(R6)  returns 0x00000000 (0000ms, 0487ms total)
T5330 011:826 JLINK_ReadReg(R7)  returns 0x00000000 (0000ms, 0487ms total)
T5330 011:826 JLINK_ReadReg(R8)  returns 0x00000000 (0000ms, 0487ms total)
T5330 011:826 JLINK_ReadReg(R9)  returns 0x00000000 (0000ms, 0487ms total)
T5330 011:826 JLINK_ReadReg(R10)  returns 0x00000000 (0000ms, 0487ms total)
T5330 011:826 JLINK_ReadReg(R11)  returns 0x00000000 (0000ms, 0487ms total)
T5330 011:826 JLINK_ReadReg(R12)  returns 0x200040B0 (0000ms, 0487ms total)
T5330 011:826 JLINK_ReadReg(R13 (SP))  returns 0x20006660 (0000ms, 0487ms total)
T5330 011:826 JLINK_ReadReg(R14)  returns 0x08006075 (0000ms, 0487ms total)
T5330 011:826 JLINK_ReadReg(R15 (PC))  returns 0x08006074 (0000ms, 0487ms total)
T5330 011:826 JLINK_ReadReg(XPSR)  returns 0x01000000 (0000ms, 0487ms total)
T5330 011:826 JLINK_ReadReg(MSP)  returns 0x20006660 (0000ms, 0487ms total)
T5330 011:826 JLINK_ReadReg(PSP)  returns 0x00000000 (0000ms, 0487ms total)
T5330 011:826 JLINK_ReadReg(CFBP)  returns 0x04005000 (0000ms, 0487ms total)
T5330 011:826 JLINK_ReadReg(FPSCR)  returns 0x00000000 (0019ms, 0506ms total)
T5330 011:845 JLINK_ReadReg(FPS0)  returns 0x00000000 (0000ms, 0506ms total)
T5330 011:845 JLINK_ReadReg(FPS1)  returns 0x00000000 (0000ms, 0506ms total)
T5330 011:845 JLINK_ReadReg(FPS2)  returns 0x00000000 (0000ms, 0506ms total)
T5330 011:845 JLINK_ReadReg(FPS3)  returns 0x00000000 (0000ms, 0506ms total)
T5330 011:845 JLINK_ReadReg(FPS4)  returns 0x00000000 (0000ms, 0506ms total)
T5330 011:845 JLINK_ReadReg(FPS5)  returns 0x00000000 (0000ms, 0506ms total)
T5330 011:845 JLINK_ReadReg(FPS6)  returns 0x00000000 (0000ms, 0506ms total)
T5330 011:845 JLINK_ReadReg(FPS7)  returns 0x00000000 (0000ms, 0506ms total)
T5330 011:845 JLINK_ReadReg(FPS8)  returns 0x00000000 (0000ms, 0506ms total)
T5330 011:845 JLINK_ReadReg(FPS9)  returns 0x00000000 (0000ms, 0506ms total)
T5330 011:845 JLINK_ReadReg(FPS10)  returns 0x00000000 (0000ms, 0506ms total)
T5330 011:845 JLINK_ReadReg(FPS11)  returns 0x00000000 (0000ms, 0506ms total)
T5330 011:845 JLINK_ReadReg(FPS12)  returns 0x00000000 (0000ms, 0506ms total)
T5330 011:845 JLINK_ReadReg(FPS13)  returns 0x00000000 (0000ms, 0506ms total)
T5330 011:845 JLINK_ReadReg(FPS14)  returns 0x00000000 (0000ms, 0506ms total)
T5330 011:845 JLINK_ReadReg(FPS15)  returns 0x00000000 (0000ms, 0506ms total)
T5330 011:845 JLINK_ReadReg(FPS16)  returns 0x00000000 (0000ms, 0506ms total)
T5330 011:845 JLINK_ReadReg(FPS17)  returns 0x00000000 (0000ms, 0506ms total)
T5330 011:845 JLINK_ReadReg(FPS18)  returns 0x00000000 (0000ms, 0506ms total)
T5330 011:845 JLINK_ReadReg(FPS19)  returns 0x00000000 (0000ms, 0506ms total)
T5330 011:845 JLINK_ReadReg(FPS20)  returns 0x00000000 (0000ms, 0506ms total)
T5330 011:845 JLINK_ReadReg(FPS21)  returns 0x00000000 (0000ms, 0506ms total)
T5330 011:845 JLINK_ReadReg(FPS22)  returns 0x00000000 (0000ms, 0506ms total)
T5330 011:845 JLINK_ReadReg(FPS23)  returns 0x00000000 (0001ms, 0507ms total)
T5330 011:846 JLINK_ReadReg(FPS24)  returns 0x00000000 (0000ms, 0507ms total)
T5330 011:846 JLINK_ReadReg(FPS25)  returns 0x00000000 (0000ms, 0507ms total)
T5330 011:846 JLINK_ReadReg(FPS26)  returns 0x00000000 (0000ms, 0507ms total)
T5330 011:846 JLINK_ReadReg(FPS27)  returns 0x00000000 (0000ms, 0507ms total)
T5330 011:846 JLINK_ReadReg(FPS28)  returns 0x00000000 (0000ms, 0507ms total)
T5330 011:846 JLINK_ReadReg(FPS29)  returns 0x00000000 (0000ms, 0507ms total)
T5330 011:846 JLINK_ReadReg(FPS30)  returns 0x00000000 (0000ms, 0507ms total)
T5330 011:846 JLINK_ReadReg(FPS31)  returns 0x00000000 (0000ms, 0507ms total)
T6534 011:846 JLINK_ReadMemU32(0xE0001004, 0x0001 Items, ...) -- CPU_ReadMem(4 bytes @ 0xE0001004) - Data: 8E 39 C9 01  returns 0x01 (0001ms, 0508ms total)
T6534 011:856 JLINK_ReadMemEx(0x08006074, 0x003C Bytes, ..., Flags = 0x02000000) -- CPU_ReadMem(128 bytes @ 0x08006040) -- Updating C cache (128 bytes @ 0x08006040) -- Read from C cache (60 bytes @ 0x08006074) - Data: 01 22 80 21 07 48 FB F7 69 F8 00 F0 50 F8 FE E7 ...  returns 0x3C (0004ms, 0512ms total)
T5330 014:518 JLINK_ReadMemEx(0x08006074, 0x0002 Bytes, ..., Flags = 0x02000000) -- Read from C cache (2 bytes @ 0x08006074) - Data: 01 22  returns 0x02 (0000ms, 0512ms total)
T5330 014:518 JLINK_ReadMemU32(0xE0001004, 0x0001 Items, ...) - Data: 8E 39 C9 01  returns 0x01 (0000ms, 0512ms total)
T5330 014:518 JLINK_WriteU32(0xE0001004, 0x01C93BFF)  returns 0x00 (0000ms, 0512ms total)
T5330 014:518 JLINK_WriteU32(0xE0001000, 0x00410A1F)  returns 0x00 (0000ms, 0512ms total)
T5330 014:518 JLINK_WriteU32(0xE0000E80, 0x0001000F)  returns 0x00 (0000ms, 0512ms total)
T5330 014:518 JLINK_SWO_Control(JLINKARM_SWO_CMD_GET_NUM_BYTES, ...)  returns 0x00 (0000ms, 0512ms total)
T5330 014:518 JLINK_Step() -- Read from C cache (2 bytes @ 0x08006074) -- CPU_ReadMem(4 bytes @ 0xE000ED18) -- CPU_WriteMem(4 bytes @ 0xE000ED18) -- CPU_ReadMem(4 bytes @ 0xE000ED18) -- CPU_WriteMem(4 bytes @ 0xE000ED18) -- Simulated  returns 0x00 (0005ms, 0517ms total)
T5330 014:523 JLINK_ReadReg(R15 (PC))  returns 0x08006076 (0000ms, 0517ms total)
T5330 014:523 JLINK_ReadReg(XPSR)  returns 0x01000000 (0000ms, 0517ms total)
T5330 014:523 JLINK_ReadMemU32(0xE0001004, 0x0001 Items, ...) - Data: 00 3C C9 01  returns 0x01 (0000ms, 0517ms total)
T5330 014:523 JLINK_WriteU32(0xE0001004, 0x01C93BFF)  returns 0x00 (0000ms, 0517ms total)
T5330 014:523 JLINK_WriteU32(0xE0001000, 0x00410A1F)  returns 0x00 (0000ms, 0517ms total)
T5330 014:523 JLINK_WriteU32(0xE0000E80, 0x0001000F)  returns 0x00 (0000ms, 0517ms total)
T5330 014:523 JLINK_SWO_Control(JLINKARM_SWO_CMD_GET_NUM_BYTES, ...)  returns 0x00 (0000ms, 0517ms total)
T5330 014:523 JLINK_Step() -- Read from C cache (2 bytes @ 0x08006076) -- Simulated  returns 0x00 (0000ms, 0517ms total)
T5330 014:523 JLINK_ReadReg(R15 (PC))  returns 0x08006078 (0000ms, 0517ms total)
T5330 014:523 JLINK_ReadReg(XPSR)  returns 0x01000000 (0001ms, 0518ms total)
T5330 014:524 JLINK_ReadMemU32(0xE0001004, 0x0001 Items, ...) - Data: 00 3C C9 01  returns 0x01 (0000ms, 0518ms total)
T5330 014:524 JLINK_WriteU32(0xE0001004, 0x01C93BFF)  returns 0x00 (0000ms, 0518ms total)
T5330 014:524 JLINK_WriteU32(0xE0001000, 0x00410A1F)  returns 0x00 (0000ms, 0518ms total)
T5330 014:524 JLINK_WriteU32(0xE0000E80, 0x0001000F)  returns 0x00 (0000ms, 0518ms total)
T5330 014:524 JLINK_SWO_Control(JLINKARM_SWO_CMD_GET_NUM_BYTES, ...)  returns 0x00 (0000ms, 0518ms total)
T5330 014:524 JLINK_Step() -- Read from C cache (2 bytes @ 0x08006078) -- Read from C cache (4 bytes @ 0x08006098) -- Simulated  returns 0x00 (0000ms, 0518ms total)
T5330 014:524 JLINK_ReadReg(R15 (PC))  returns 0x0800607A (0000ms, 0518ms total)
T5330 014:524 JLINK_ReadReg(XPSR)  returns 0x01000000 (0000ms, 0518ms total)
T5330 014:524 JLINK_ReadMemU32(0xE0001004, 0x0001 Items, ...) - Data: 01 3C C9 01  returns 0x01 (0000ms, 0518ms total)
T5330 014:524 JLINK_WriteU32(0xE0001004, 0x01C93BFF)  returns 0x00 (0000ms, 0518ms total)
T5330 014:524 JLINK_WriteU32(0xE0001000, 0x00410A1F)  returns 0x00 (0000ms, 0518ms total)
T5330 014:524 JLINK_WriteU32(0xE0000E80, 0x0001000F)  returns 0x00 (0000ms, 0518ms total)
T5330 014:524 JLINK_SWO_Control(JLINKARM_SWO_CMD_GET_NUM_BYTES, ...)  returns 0x00 (0000ms, 0518ms total)
T5330 014:524 JLINK_Step() -- Read from C cache (2 bytes @ 0x0800607A) -- Read from C cache (2 bytes @ 0x0800607C) -- Simulated  returns 0x00 (0000ms, 0518ms total)
T5330 014:524 JLINK_ReadReg(R15 (PC))  returns 0x08001150 (0000ms, 0518ms total)
T5330 014:524 JLINK_ReadReg(XPSR)  returns 0x01000000 (0000ms, 0518ms total)
T5330 014:524 JLINK_ReadReg(R0)  returns 0x40021000 (0000ms, 0518ms total)
T5330 014:524 JLINK_ReadReg(R1)  returns 0x00000080 (0000ms, 0518ms total)
T5330 014:524 JLINK_ReadReg(R2)  returns 0x00000001 (0000ms, 0518ms total)
T5330 014:524 JLINK_ReadReg(R3)  returns 0x200013A8 (0000ms, 0518ms total)
T5330 014:524 JLINK_ReadReg(R4)  returns 0x08007A48 (0000ms, 0518ms total)
T5330 014:524 JLINK_ReadReg(R5)  returns 0x08007A48 (0000ms, 0518ms total)
T5330 014:524 JLINK_ReadReg(R6)  returns 0x00000000 (0000ms, 0518ms total)
T5330 014:524 JLINK_ReadReg(R7)  returns 0x00000000 (0000ms, 0518ms total)
T5330 014:524 JLINK_ReadReg(R8)  returns 0x00000000 (0000ms, 0518ms total)
T5330 014:524 JLINK_ReadReg(R9)  returns 0x00000000 (0000ms, 0518ms total)
T5330 014:524 JLINK_ReadReg(R10)  returns 0x00000000 (0000ms, 0518ms total)
T5330 014:524 JLINK_ReadReg(R11)  returns 0x00000000 (0000ms, 0518ms total)
T5330 014:524 JLINK_ReadReg(R12)  returns 0x200040B0 (0000ms, 0518ms total)
T5330 014:524 JLINK_ReadReg(R13 (SP))  returns 0x20006660 (0000ms, 0518ms total)
T5330 014:524 JLINK_ReadReg(R14)  returns 0x0800607F (0000ms, 0518ms total)
T5330 014:524 JLINK_ReadReg(R15 (PC))  returns 0x08001150 (0001ms, 0519ms total)
T5330 014:525 JLINK_ReadReg(XPSR)  returns 0x01000000 (0000ms, 0519ms total)
T5330 014:525 JLINK_ReadReg(MSP)  returns 0x20006660 (0000ms, 0519ms total)
T5330 014:525 JLINK_ReadReg(PSP)  returns 0x00000000 (0000ms, 0519ms total)
T5330 014:525 JLINK_ReadReg(CFBP)  returns 0x04005000 (0000ms, 0519ms total)
T5330 014:525 JLINK_ReadReg(FPSCR)  returns 0x00000000 (0000ms, 0519ms total)
T5330 014:525 JLINK_ReadReg(FPS0)  returns 0x00000000 (0000ms, 0519ms total)
T5330 014:525 JLINK_ReadReg(FPS1)  returns 0x00000000 (0000ms, 0519ms total)
T5330 014:525 JLINK_ReadReg(FPS2)  returns 0x00000000 (0000ms, 0519ms total)
T5330 014:525 JLINK_ReadReg(FPS3)  returns 0x00000000 (0000ms, 0519ms total)
T5330 014:525 JLINK_ReadReg(FPS4)  returns 0x00000000 (0000ms, 0519ms total)
T5330 014:525 JLINK_ReadReg(FPS5)  returns 0x00000000 (0000ms, 0519ms total)
T5330 014:525 JLINK_ReadReg(FPS6)  returns 0x00000000 (0000ms, 0519ms total)
T5330 014:525 JLINK_ReadReg(FPS7)  returns 0x00000000 (0000ms, 0519ms total)
T5330 014:525 JLINK_ReadReg(FPS8)  returns 0x00000000 (0000ms, 0519ms total)
T5330 014:525 JLINK_ReadReg(FPS9)  returns 0x00000000 (0000ms, 0519ms total)
T5330 014:525 JLINK_ReadReg(FPS10)  returns 0x00000000 (0000ms, 0519ms total)
T5330 014:525 JLINK_ReadReg(FPS11)  returns 0x00000000 (0000ms, 0519ms total)
T5330 014:525 JLINK_ReadReg(FPS12)  returns 0x00000000 (0000ms, 0519ms total)
T5330 014:525 JLINK_ReadReg(FPS13)  returns 0x00000000 (0000ms, 0519ms total)
T5330 014:525 JLINK_ReadReg(FPS14)  returns 0x00000000 (0000ms, 0519ms total)
T5330 014:525 JLINK_ReadReg(FPS15)  returns 0x00000000 (0000ms, 0519ms total)
T5330 014:525 JLINK_ReadReg(FPS16)  returns 0x00000000 (0000ms, 0519ms total)
T5330 014:525 JLINK_ReadReg(FPS17)  returns 0x00000000 (0000ms, 0519ms total)
T5330 014:525 JLINK_ReadReg(FPS18)  returns 0x00000000 (0000ms, 0519ms total)
T5330 014:525 JLINK_ReadReg(FPS19)  returns 0x00000000 (0000ms, 0519ms total)
T5330 014:525 JLINK_ReadReg(FPS20)  returns 0x00000000 (0000ms, 0519ms total)
T5330 014:525 JLINK_ReadReg(FPS21)  returns 0x00000000 (0000ms, 0519ms total)
T5330 014:525 JLINK_ReadReg(FPS22)  returns 0x00000000 (0000ms, 0519ms total)
T5330 014:525 JLINK_ReadReg(FPS23)  returns 0x00000000 (0000ms, 0519ms total)
T5330 014:525 JLINK_ReadReg(FPS24)  returns 0x00000000 (0000ms, 0519ms total)
T5330 014:525 JLINK_ReadReg(FPS25)  returns 0x00000000 (0000ms, 0519ms total)
T5330 014:525 JLINK_ReadReg(FPS26)  returns 0x00000000 (0000ms, 0519ms total)
T5330 014:525 JLINK_ReadReg(FPS27)  returns 0x00000000 (0000ms, 0519ms total)
T5330 014:525 JLINK_ReadReg(FPS28)  returns 0x00000000 (0000ms, 0519ms total)
T5330 014:525 JLINK_ReadReg(FPS29)  returns 0x00000000 (0000ms, 0519ms total)
T5330 014:525 JLINK_ReadReg(FPS30)  returns 0x00000000 (0000ms, 0519ms total)
T5330 014:525 JLINK_ReadReg(FPS31)  returns 0x00000000 (0000ms, 0519ms total)
T6534 014:534 JLINK_ReadMemU32(0xE0001004, 0x0001 Items, ...) - Data: 00 3C C9 01  returns 0x01 (0000ms, 0519ms total)
T5330 016:153 JLINK_ReadMemEx(0x08001150, 0x003C Bytes, ..., Flags = 0x02000000) -- CPU_ReadMem(128 bytes @ 0x08001140) -- Updating C cache (128 bytes @ 0x08001140) -- Read from C cache (60 bytes @ 0x08001150) - Data: 0A B1 81 61 70 47 09 04 FB E7 00 00 01 48 00 68 ...  returns 0x3C (0003ms, 0522ms total)
T5330 016:158 JLINK_ReadMemEx(0x08001150, 0x0002 Bytes, ..., Flags = 0x02000000) -- Read from C cache (2 bytes @ 0x08001150) - Data: 0A B1  returns 0x02 (0000ms, 0524ms total)
T5330 016:158 JLINK_ReadMemU32(0xE0001004, 0x0001 Items, ...) - Data: 00 3C C9 01  returns 0x01 (0000ms, 0524ms total)
T5330 016:158 JLINK_WriteU32(0xE0001004, 0x01C93FFF)  returns 0x00 (0000ms, 0524ms total)
T5330 016:158 JLINK_WriteU32(0xE0001000, 0x00410A1F)  returns 0x00 (0000ms, 0524ms total)
T5330 016:158 JLINK_WriteU32(0xE0000E80, 0x0001000F)  returns 0x00 (0000ms, 0524ms total)
T5330 016:158 JLINK_SWO_Control(JLINKARM_SWO_CMD_GET_NUM_BYTES, ...)  returns 0x00 (0000ms, 0524ms total)
T5330 016:158 JLINK_Step() -- Read from C cache (2 bytes @ 0x08001150) -- Simulated  returns 0x00 (0000ms, 0524ms total)
T5330 016:158 JLINK_ReadReg(R15 (PC))  returns 0x08001152 (0000ms, 0524ms total)
T5330 016:158 JLINK_ReadReg(XPSR)  returns 0x01000000 (0000ms, 0524ms total)
T5330 016:158 JLINK_ReadReg(R0)  returns 0x40021000 (0000ms, 0524ms total)
T5330 016:158 JLINK_ReadReg(R1)  returns 0x00000080 (0000ms, 0524ms total)
T5330 016:158 JLINK_ReadReg(R2)  returns 0x00000001 (0000ms, 0524ms total)
T5330 016:158 JLINK_ReadReg(R3)  returns 0x200013A8 (0000ms, 0524ms total)
T5330 016:158 JLINK_ReadReg(R4)  returns 0x08007A48 (0000ms, 0524ms total)
T5330 016:158 JLINK_ReadReg(R5)  returns 0x08007A48 (0000ms, 0524ms total)
T5330 016:158 JLINK_ReadReg(R6)  returns 0x00000000 (0000ms, 0524ms total)
T5330 016:158 JLINK_ReadReg(R7)  returns 0x00000000 (0000ms, 0524ms total)
T5330 016:158 JLINK_ReadReg(R8)  returns 0x00000000 (0000ms, 0524ms total)
T5330 016:158 JLINK_ReadReg(R9)  returns 0x00000000 (0000ms, 0524ms total)
T5330 016:158 JLINK_ReadReg(R10)  returns 0x00000000 (0000ms, 0524ms total)
T5330 016:158 JLINK_ReadReg(R11)  returns 0x00000000 (0000ms, 0524ms total)
T5330 016:158 JLINK_ReadReg(R12)  returns 0x200040B0 (0000ms, 0524ms total)
T5330 016:158 JLINK_ReadReg(R13 (SP))  returns 0x20006660 (0000ms, 0524ms total)
T5330 016:158 JLINK_ReadReg(R14)  returns 0x0800607F (0000ms, 0524ms total)
T5330 016:158 JLINK_ReadReg(R15 (PC))  returns 0x08001152 (0000ms, 0524ms total)
T5330 016:158 JLINK_ReadReg(XPSR)  returns 0x01000000 (0001ms, 0525ms total)
T5330 016:159 JLINK_ReadReg(MSP)  returns 0x20006660 (0000ms, 0525ms total)
T5330 016:159 JLINK_ReadReg(PSP)  returns 0x00000000 (0000ms, 0525ms total)
T5330 016:159 JLINK_ReadReg(CFBP)  returns 0x04005000 (0000ms, 0525ms total)
T5330 016:159 JLINK_ReadReg(FPSCR)  returns 0x00000000 (0000ms, 0525ms total)
T5330 016:159 JLINK_ReadReg(FPS0)  returns 0x00000000 (0000ms, 0525ms total)
T5330 016:159 JLINK_ReadReg(FPS1)  returns 0x00000000 (0000ms, 0525ms total)
T5330 016:159 JLINK_ReadReg(FPS2)  returns 0x00000000 (0000ms, 0525ms total)
T5330 016:159 JLINK_ReadReg(FPS3)  returns 0x00000000 (0000ms, 0525ms total)
T5330 016:159 JLINK_ReadReg(FPS4)  returns 0x00000000 (0000ms, 0525ms total)
T5330 016:159 JLINK_ReadReg(FPS5)  returns 0x00000000 (0000ms, 0525ms total)
T5330 016:159 JLINK_ReadReg(FPS6)  returns 0x00000000 (0000ms, 0525ms total)
T5330 016:159 JLINK_ReadReg(FPS7)  returns 0x00000000 (0000ms, 0525ms total)
T5330 016:159 JLINK_ReadReg(FPS8)  returns 0x00000000 (0000ms, 0525ms total)
T5330 016:159 JLINK_ReadReg(FPS9)  returns 0x00000000 (0000ms, 0525ms total)
T5330 016:159 JLINK_ReadReg(FPS10)  returns 0x00000000 (0000ms, 0525ms total)
T5330 016:159 JLINK_ReadReg(FPS11)  returns 0x00000000 (0000ms, 0525ms total)
T5330 016:159 JLINK_ReadReg(FPS12)  returns 0x00000000 (0000ms, 0525ms total)
T5330 016:159 JLINK_ReadReg(FPS13)  returns 0x00000000 (0000ms, 0525ms total)
T5330 016:159 JLINK_ReadReg(FPS14)  returns 0x00000000 (0000ms, 0525ms total)
T5330 016:159 JLINK_ReadReg(FPS15)  returns 0x00000000 (0000ms, 0525ms total)
T5330 016:159 JLINK_ReadReg(FPS16)  returns 0x00000000 (0000ms, 0525ms total)
T5330 016:159 JLINK_ReadReg(FPS17)  returns 0x00000000 (0000ms, 0525ms total)
T5330 016:159 JLINK_ReadReg(FPS18)  returns 0x00000000 (0000ms, 0525ms total)
T5330 016:159 JLINK_ReadReg(FPS19)  returns 0x00000000 (0000ms, 0525ms total)
T5330 016:159 JLINK_ReadReg(FPS20)  returns 0x00000000 (0000ms, 0525ms total)
T5330 016:159 JLINK_ReadReg(FPS21)  returns 0x00000000 (0000ms, 0525ms total)
T5330 016:159 JLINK_ReadReg(FPS22)  returns 0x00000000 (0000ms, 0525ms total)
T5330 016:159 JLINK_ReadReg(FPS23)  returns 0x00000000 (0000ms, 0525ms total)
T5330 016:159 JLINK_ReadReg(FPS24)  returns 0x00000000 (0000ms, 0525ms total)
T5330 016:159 JLINK_ReadReg(FPS25)  returns 0x00000000 (0000ms, 0525ms total)
T5330 016:159 JLINK_ReadReg(FPS26)  returns 0x00000000 (0000ms, 0525ms total)
T5330 016:159 JLINK_ReadReg(FPS27)  returns 0x00000000 (0000ms, 0525ms total)
T5330 016:159 JLINK_ReadReg(FPS28)  returns 0x00000000 (0000ms, 0525ms total)
T5330 016:159 JLINK_ReadReg(FPS29)  returns 0x00000000 (0000ms, 0525ms total)
T5330 016:159 JLINK_ReadReg(FPS30)  returns 0x00000000 (0000ms, 0525ms total)
T5330 016:159 JLINK_ReadReg(FPS31)  returns 0x00000000 (0000ms, 0525ms total)
T6534 016:161 JLINK_ReadMemEx(0x00000000, 0x0002 Bytes, ..., Flags = 0x02000000) -- CPU_ReadMem(4 bytes @ 0x00000004) -- CPU_ReadMem(64 bytes @ 0x08000000) -- Updating C cache (64 bytes @ 0x08000000) -- Read from C cache (2 bytes @ 0x08000000) - Data: 60 66  returns 0x02 (0003ms, 0528ms total)
T6534 016:164 JLINK_ReadMemU32(0xE0001004, 0x0001 Items, ...) - Data: 00 40 C9 01  returns 0x01 (0000ms, 0528ms total)
T5330 016:753 JLINK_ReadMemEx(0x08001152, 0x0002 Bytes, ..., Flags = 0x02000000) -- Read from C cache (2 bytes @ 0x08001152) - Data: 81 61  returns 0x02 (0001ms, 0529ms total)
T5330 016:754 JLINK_ReadMemEx(0x08001154, 0x003C Bytes, ..., Flags = 0x02000000) -- Read from C cache (60 bytes @ 0x08001154) - Data: 70 47 09 04 FB E7 00 00 01 48 00 68 70 47 00 00 ...  returns 0x3C (0000ms, 0529ms total)
T5330 016:754 JLINK_ReadMemEx(0x08001152, 0x0002 Bytes, ..., Flags = 0x02000000) -- Read from C cache (2 bytes @ 0x08001152) - Data: 81 61  returns 0x02 (0000ms, 0529ms total)
T5330 016:754 JLINK_ReadMemU32(0xE0001004, 0x0001 Items, ...) - Data: 00 40 C9 01  returns 0x01 (0000ms, 0529ms total)
T5330 016:754 JLINK_WriteU32(0xE0001004, 0x01C943FF)  returns 0x00 (0000ms, 0529ms total)
T5330 016:754 JLINK_WriteU32(0xE0001000, 0x00410A1F)  returns 0x00 (0000ms, 0529ms total)
T5330 016:754 JLINK_WriteU32(0xE0000E80, 0x0001000F)  returns 0x00 (0000ms, 0529ms total)
T5330 016:754 JLINK_SWO_Control(JLINKARM_SWO_CMD_GET_NUM_BYTES, ...)  returns 0x00 (0000ms, 0529ms total)
T5330 016:754 JLINK_Step() -- Read from C cache (2 bytes @ 0x08001152) -- Not simulated -- CPU_WriteMem(4 bytes @ 0xE0000E80) -- CPU_WriteMem(4 bytes @ 0xE0001000) -- CPU_WriteMem(4 bytes @ 0xE0002008) -- CPU_WriteMem(4 bytes @ 0xE0001004)  returns 0x00 (0019ms, 0548ms total)
T5330 016:774 JLINK_ReadReg(R15 (PC))  returns 0x08001154 (0000ms, 0548ms total)
T5330 016:774 JLINK_ReadReg(XPSR)  returns 0x01000000 (0000ms, 0548ms total)
T5330 016:774 JLINK_ReadReg(R0)  returns 0x40021000 (0000ms, 0548ms total)
T5330 016:774 JLINK_ReadReg(R1)  returns 0x00000080 (0000ms, 0548ms total)
T5330 016:774 JLINK_ReadReg(R2)  returns 0x00000001 (0000ms, 0548ms total)
T5330 016:774 JLINK_ReadReg(R3)  returns 0x200013A8 (0000ms, 0548ms total)
T5330 016:774 JLINK_ReadReg(R4)  returns 0x08007A48 (0000ms, 0548ms total)
T5330 016:774 JLINK_ReadReg(R5)  returns 0x08007A48 (0000ms, 0548ms total)
T5330 016:774 JLINK_ReadReg(R6)  returns 0x00000000 (0000ms, 0548ms total)
T5330 016:774 JLINK_ReadReg(R7)  returns 0x00000000 (0000ms, 0548ms total)
T5330 016:774 JLINK_ReadReg(R8)  returns 0x00000000 (0000ms, 0548ms total)
T5330 016:774 JLINK_ReadReg(R9)  returns 0x00000000 (0000ms, 0548ms total)
T5330 016:774 JLINK_ReadReg(R10)  returns 0x00000000 (0000ms, 0548ms total)
T5330 016:774 JLINK_ReadReg(R11)  returns 0x00000000 (0000ms, 0548ms total)
T5330 016:774 JLINK_ReadReg(R12)  returns 0x200040B0 (0000ms, 0548ms total)
T5330 016:774 JLINK_ReadReg(R13 (SP))  returns 0x20006660 (0000ms, 0548ms total)
T5330 016:774 JLINK_ReadReg(R14)  returns 0x0800607F (0000ms, 0548ms total)
T5330 016:774 JLINK_ReadReg(R15 (PC))  returns 0x08001154 (0000ms, 0548ms total)
